T7018 022:241 SEGGER J-Link V6.52d Log File (0000ms, 1019ms total)
T7018 022:241 DLL Compiled: Oct 15 2019 16:14:26 (0000ms, 1019ms total)
T7018 022:241 Logging started @ 2020-04-08 12:14 (0000ms, 1019ms total)
T7018 022:241 JLINK_SetWarnOutHandler(...) (0000ms, 1019ms total)
T7018 022:241 JLINK_OpenEx(...)
Firmware: J-Link V10 compiled Oct 22 2019 16:28:15
Hardware: V10.10
S/N: 260108658
OEM: SEGGER-EDU
Feature(s): FlashBP, GDB
TELNET listener socket opened on port 19021WEBSRV 
Starting webserver (0041ms, 1060ms total)
T7018 022:241 WEBSRV Webserver running on local port 19080 (0041ms, 1060ms total)
T7018 022:241   returns O.K. (0041ms, 1060ms total)
T7018 022:283 JLINK_GetEmuCaps()  returns 0xB9FF7BBF (0000ms, 1060ms total)
T7018 022:283 JLINK_TIF_GetAvailable(...) (0000ms, 1060ms total)
T7018 022:283 JLINK_SetErrorOutHandler(...) (0000ms, 1060ms total)
T7018 022:283 JLINK_ExecCommand("ProjectFile = "C:\TarazWorkDir\chashma vortex\chashma proj\SPWM inverter\JLinkSettings.ini"", ...).   returns 0x00 (0002ms, 1062ms total)
T7018 022:287 JLINK_ExecCommand("Device = MKV31F512VLL12", ...). Device "MKV31F512XXX12" selected.  returns 0x00 (0003ms, 1065ms total)
T7018 022:291 JLINK_ExecCommand("DisableConnectionTimeout", ...).   returns 0x01 (0000ms, 1066ms total)
T7018 022:291 JLINK_GetHardwareVersion()  returns 0x18A88 (0000ms, 1066ms total)
T7018 022:291 JLINK_GetDLLVersion()  returns 65204 (0000ms, 1066ms total)
T7018 022:297 JLINK_GetDLLVersion()  returns 65204 (0000ms, 1066ms total)
T7018 022:297 JLINK_GetCompileDateTime() (0001ms, 1067ms total)
T7018 022:300 JLINK_GetFirmwareString(...)
T7018 022:300 (0000ms, 1067ms total)
T7018 022:302 JLINK_GetHardwareVersion()  returns 0x18A88 (0000ms, 1067ms total)
T7018 022:312 JLINK_TIF_Select(JLINKARM_TIF_SWD)  returns 0x00 (0002ms, 1069ms total)
T7018 022:314 JLINK_SetSpeed(5000) (0000ms, 1069ms total)
T7018 022:314 JLINK_GetId()InitTarget()Found SW-DP with ID 0x2BA01477Scanning AP map to find all available APsAP[2]: Stopped AP scan as end of AP map has been reachedAP[0]: AHB-AP (IDR: 0x24770011)AP[1]: JTAG-AP (IDR: 0x001C0000)Iterating through AP map to find AHB-AP to useAP[0]: Core foundAP[0]: AHB-AP ROM base: 0xE00FF000CPUID register: 0x410FC241. Implementer code: 0x41 (ARM)Found Cortex-M4 r0p1, Little endian. -- Max. mem block: 0x00004568 -- CPU_ReadMem(4 bytes @ 0xE000EDF0)
 -- CPU_WriteMem(4 bytes @ 0xE000EDF0) -- CPU_ReadMem(4 bytes @ 0xE0002000)FPUnit: 6 code (BP) slots and 2 literal slots -- CPU_ReadMem(4 bytes @ 0xE000EDFC) -- CPU_WriteMem(4 bytes @ 0xE000EDFC) -- CPU_ReadMem(4 bytes @ 0xE0001000) -- CPU_WriteMem(4 bytes @ 0xE0001000) -- CPU_ReadMem(4 bytes @ 0xE000ED88) -- CPU_WriteMem(4 bytes @ 0xE000ED88) -- CPU_ReadMem(4 bytes @ 0xE000ED88) -- CPU_WriteMem(4 bytes @ 0xE000ED88)CoreSight components:ROMTbl[0] @ E00FF000 -- CPU_ReadMem(16 bytes @ 0xE00FF000)
 -- CPU_ReadMem(16 bytes @ 0xE000EFF0) -- CPU_ReadMem(16 bytes @ 0xE000EFE0)ROMTbl[0][0]: E000E000, CID: B105E00D, PID: 000BB00C SCS-M7 -- CPU_ReadMem(16 bytes @ 0xE0001FF0) -- CPU_ReadMem(16 bytes @ 0xE0001FE0)ROMTbl[0][1]: E0001000, CID: B105E00D, PID: 003BB002 DWT -- CPU_ReadMem(16 bytes @ 0xE0002FF0) -- CPU_ReadMem(16 bytes @ 0xE0002FE0)ROMTbl[0][2]: E0002000, CID: B105E00D, PID: 002BB003 FPB -- CPU_ReadMem(16 bytes @ 0xE0000FF0) -- CPU_ReadMem(16 bytes @ 0xE0000FE0)
ROMTbl[0][3]: E0000000, CID: B105E00D, PID: 003BB001 ITM -- CPU_ReadMem(16 bytes @ 0xE00FF010) -- CPU_ReadMem(16 bytes @ 0xE0040FF0) -- CPU_ReadMem(16 bytes @ 0xE0040FE0)ROMTbl[0][4]: E0040000, CID: B105900D, PID: 000BB9A1 TPIU -- CPU_ReadMem(16 bytes @ 0xE00FF020)  returns 0x2BA01477 (0254ms, 1323ms total)
T7018 022:568 JLINK_GetDLLVersion()  returns 65204 (0000ms, 1323ms total)
T7018 022:569 JLINK_CORE_GetFound()  returns 0xE0000FF (0000ms, 1323ms total)
T7018 022:569 JLINK_GetDebugInfo(0x100 = JLINKARM_ROM_TABLE_ADDR_INDEX) -- Value=0xE00FF000  returns 0x00 (0000ms, 1323ms total)
T7018 022:573 JLINK_GetDebugInfo(0x100 = JLINKARM_ROM_TABLE_ADDR_INDEX) -- Value=0xE00FF000  returns 0x00 (0000ms, 1323ms total)
T7018 022:573 JLINK_GetDebugInfo(0x101 = JLINKARM_DEBUG_INFO_ETM_ADDR_INDEX) -- Value=0x00000000  returns 0x00 (0000ms, 1323ms total)
T7018 022:573 JLINK_ReadMemEx(0xE0041FF0, 0x0010 Bytes, ..., Flags = 0x02000004) -- CPU_ReadMem(16 bytes @ 0xE0041FF0) - Data: 00 00 00 00 00 00 00 00 00 00 00 00 00 00 00 00  returns 0x10 (0001ms, 1324ms total)
T7018 022:574 JLINK_GetDebugInfo(0x102 = JLINKARM_DEBUG_INFO_MTB_ADDR_INDEX) -- Value=0x00000000  returns 0x00 (0000ms, 1324ms total)
T7018 022:574 JLINK_GetDebugInfo(0x103 = JLINKARM_DEBUG_INFO_TPIU_ADDR_INDEX) -- Value=0xE0040000  returns 0x00 (0000ms, 1324ms total)
T7018 022:574 JLINK_GetDebugInfo(0x104 = JLINKARM_DEBUG_INFO_ITM_ADDR_INDEX) -- Value=0xE0000000  returns 0x00 (0000ms, 1324ms total)
T7018 022:574 JLINK_GetDebugInfo(0x105 = JLINKARM_DEBUG_INFO_DWT_ADDR_INDEX) -- Value=0xE0001000  returns 0x00 (0000ms, 1324ms total)
T7018 022:575 JLINK_GetDebugInfo(0x106 = JLINKARM_DEBUG_INFO_FPB_ADDR_INDEX) -- Value=0xE0002000  returns 0x00 (0000ms, 1325ms total)
T7018 022:575 JLINK_GetDebugInfo(0x107 = JLINKARM_DEBUG_INFO_NVIC_ADDR_INDEX) -- Value=0xE000E000  returns 0x00 (0000ms, 1325ms total)
T7018 022:575 JLINK_GetDebugInfo(0x10C = JLINKARM_DEBUG_INFO_DBG_ADDR_INDEX) -- Value=0xE000EDF0  returns 0x00 (0000ms, 1325ms total)
T7018 022:575 JLINK_GetDebugInfo(0x01 = Unknown) -- Value=0x00000001  returns 0x00 (0000ms, 1325ms total)
T7018 022:575 JLINK_ReadMemU32(0xE000ED00, 0x0001 Items, ...) -- CPU_ReadMem(4 bytes @ 0xE000ED00) - Data: 41 C2 0F 41  returns 1 (0001ms, 1326ms total)
T7018 022:576 JLINK_GetDebugInfo(0x10F = JLINKARM_DEBUG_INFO_HAS_CORTEX_M_SECURITY_EXT_INDEX) -- Value=0x00000000  returns 0x00 (0000ms, 1326ms total)
T7018 022:576 JLINK_SetResetType(JLINKARM_CM3_RESET_TYPE_NORMAL)  returns JLINKARM_CM3_RESET_TYPE_NORMAL (0000ms, 1326ms total)
T7018 022:576 JLINK_Reset() -- CPU is running -- CPU_WriteMem(4 bytes @ 0xE000EDF0) -- CPU is running -- CPU_WriteMem(4 bytes @ 0xE000EDFC)Reset: Halt core after reset via DEMCR.VC_CORERESET.Reset: Reset device via AIRCR.SYSRESETREQ. -- CPU is running -- CPU_WriteMem(4 bytes @ 0xE000ED0C) -- CPU_ReadMem(4 bytes @ 0xE000EDF0) -- CPU_ReadMem(4 bytes @ 0xE000EDF0) -- CPU is running -- CPU_WriteMem(4 bytes @ 0xE000EDF0) -- CPU is running -- CPU_WriteMem(4 bytes @ 0xE000EDFC)
 -- CPU_ReadMem(4 bytes @ 0xE000EDF0)AfterResetTarget() -- CPU_WriteMem(4 bytes @ 0xE0002000) -- CPU_ReadMem(4 bytes @ 0xE000EDFC) -- CPU_ReadMem(4 bytes @ 0xE0001000) (0107ms, 1433ms total)
T7018 022:683 JLINK_Halt()  returns 0x00 (0000ms, 1433ms total)
T7018 022:683 JLINK_ReadMemU32(0xE000EDF0, 0x0001 Items, ...) -- CPU_ReadMem(4 bytes @ 0xE000EDF0) - Data: 0B 00 03 00  returns 1 (0001ms, 1434ms total)
T7018 022:684 JLINK_WriteU32(0xE000EDF0, 0xA05F0003) -- CPU_WriteMem(4 bytes @ 0xE000EDF0)  returns 0 (0000ms, 1434ms total)
T7018 022:684 JLINK_WriteU32(0xE000EDFC, 0x01000000) -- CPU_WriteMem(4 bytes @ 0xE000EDFC)  returns 0 (0001ms, 1435ms total)
T7018 022:693 JLINK_GetHWStatus(...)  returns 0x00 (0000ms, 1435ms total)
T7018 022:699 JLINK_GetNumBPUnits(Type = 0xFFFFFF00)  returns 0x06 (0000ms, 1435ms total)
T7018 022:699 JLINK_GetNumBPUnits(Type = 0xF0)  returns 0x2000 (0000ms, 1435ms total)
T7018 022:699 JLINK_GetNumWPUnits()  returns 0x04 (0000ms, 1435ms total)
T7018 022:705 JLINK_GetSpeed()  returns 0x1388 (0000ms, 1435ms total)
T7018 022:709 JLINK_ReadMemU32(0xE000E004, 0x0001 Items, ...) -- CPU_ReadMem(4 bytes @ 0xE000E004) - Data: 02 00 00 00  returns 1 (0000ms, 1435ms total)
T7018 022:709 JLINK_ReadMemU32(0xE000E004, 0x0001 Items, ...) -- CPU_ReadMem(4 bytes @ 0xE000E004) - Data: 02 00 00 00  returns 1 (0001ms, 1436ms total)
T7018 022:710 JLINK_WriteMemEx(0xE0001000, 0x001C Bytes, ..., Flags = 0x02000004) - Data: 01 00 00 00 00 00 00 00 00 00 00 00 00 00 00 00 ... -- CPU_WriteMem(28 bytes @ 0xE0001000)  returns 0x1C (0001ms, 1437ms total)
T7018 022:711 JLINK_Halt()  returns 0x00 (0000ms, 1437ms total)
T7018 022:711 JLINK_IsHalted()  returns TRUE (0000ms, 1437ms total)
T7018 022:715 JLINK_WriteMem(0x20000000, 0x0428 Bytes, ...) - Data: 00 BE 0A E0 0D 78 2D 06 68 40 08 24 40 00 00 D3 ... -- CPU_WriteMem(1064 bytes @ 0x20000000)  returns 0x428 (0004ms, 1441ms total)
T7018 022:719 JLINK_WriteReg(R0, 0x00000000)  returns 0x00 (0000ms, 1441ms total)
T7018 022:719 JLINK_WriteReg(R1, 0x00B71B00)  returns 0x00 (0000ms, 1441ms total)
T7018 022:719 JLINK_WriteReg(R2, 0x00000001)  returns 0x00 (0000ms, 1441ms total)
T7018 022:719 JLINK_WriteReg(R3, 0x00000000)  returns 0x00 (0000ms, 1441ms total)
T7018 022:719 JLINK_WriteReg(R4, 0x00000000)  returns 0x00 (0000ms, 1441ms total)
T7018 022:719 JLINK_WriteReg(R5, 0x00000000)  returns 0x00 (0000ms, 1441ms total)
T7018 022:719 JLINK_WriteReg(R6, 0x00000000)  returns 0x00 (0000ms, 1441ms total)
T7018 022:719 JLINK_WriteReg(R7, 0x00000000)  returns 0x00 (0000ms, 1441ms total)
T7018 022:719 JLINK_WriteReg(R8, 0x00000000)  returns 0x00 (0000ms, 1441ms total)
T7018 022:719 JLINK_WriteReg(R9, 0x20000420)  returns 0x00 (0000ms, 1441ms total)
T7018 022:719 JLINK_WriteReg(R10, 0x00000000)  returns 0x00 (0000ms, 1441ms total)
T7018 022:719 JLINK_WriteReg(R11, 0x00000000)  returns 0x00 (0000ms, 1441ms total)
T7018 022:719 JLINK_WriteReg(R12, 0x00000000)  returns 0x00 (0001ms, 1442ms total)
T7018 022:720 JLINK_WriteReg(R13 (SP), 0x20001000)  returns 0x00 (0000ms, 1442ms total)
T7018 022:720 JLINK_WriteReg(R14, 0x20000001)  returns 0x00 (0000ms, 1442ms total)
T7018 022:720 JLINK_WriteReg(R15 (PC), 0x20000020)  returns 0x00 (0000ms, 1442ms total)
T7018 022:720 JLINK_WriteReg(XPSR, 0x01000000)  returns 0x00 (0000ms, 1442ms total)
T7018 022:720 JLINK_WriteReg(MSP, 0x20001000)  returns 0x00 (0000ms, 1442ms total)
T7018 022:720 JLINK_WriteReg(PSP, 0x20001000)  returns 0x00 (0000ms, 1442ms total)
T7018 022:720 JLINK_WriteReg(CFBP, 0x00000000)  returns 0x00 (0000ms, 1442ms total)
T7018 022:720 JLINK_SetBPEx(Addr = 0x20000000, Type = 0xFFFFFFF2) -- CPU_ReadMem(2 bytes @ 0x20000000)  returns 0x00000001 (0000ms, 1442ms total)
T7018 022:720 JLINK_Go() -- CPU_WriteMem(2 bytes @ 0x20000000) -- CPU_ReadMem(4 bytes @ 0xE0001000) -- CPU_WriteMem(4 bytes @ 0xE0002008) -- CPU_WriteMem(4 bytes @ 0xE000200C) -- CPU_WriteMem(4 bytes @ 0xE0002010) -- CPU_WriteMem(4 bytes @ 0xE0002014) -- CPU_WriteMem(4 bytes @ 0xE0002018) -- CPU_WriteMem(4 bytes @ 0xE000201C) -- CPU_WriteMem(4 bytes @ 0xE0001004) (0006ms, 1448ms total)
T7018 022:726 JLINK_IsHalted() -- CPU_ReadMem(2 bytes @ 0x20000000)  returns TRUE (0002ms, 1450ms total)
T7018 022:728 JLINK_ReadReg(R15 (PC))  returns 0x20000000 (0000ms, 1448ms total)
T7018 022:728 JLINK_ClrBPEx(BPHandle = 0x00000001)  returns 0x00 (0000ms, 1448ms total)
T7018 022:728 JLINK_ReadReg(R0)  returns 0x00000000 (0000ms, 1448ms total)
T7018 022:729 JLINK_WriteReg(R0, 0x00000000)  returns 0x00 (0000ms, 1448ms total)
T7018 022:729 JLINK_WriteReg(R1, 0x00B71B00)  returns 0x00 (0000ms, 1448ms total)
T7018 022:729 JLINK_WriteReg(R2, 0x00000001)  returns 0x00 (0000ms, 1448ms total)
T7018 022:729 JLINK_WriteReg(R3, 0x00000000)  returns 0x00 (0000ms, 1448ms total)
T7018 022:729 JLINK_WriteReg(R4, 0x00000000)  returns 0x00 (0000ms, 1448ms total)
T7018 022:729 JLINK_WriteReg(R5, 0x00000000)  returns 0x00 (0000ms, 1448ms total)
T7018 022:729 JLINK_WriteReg(R6, 0x00000000)  returns 0x00 (0000ms, 1448ms total)
T7018 022:729 JLINK_WriteReg(R7, 0x00000000)  returns 0x00 (0000ms, 1448ms total)
T7018 022:729 JLINK_WriteReg(R8, 0x00000000)  returns 0x00 (0000ms, 1448ms total)
T7018 022:729 JLINK_WriteReg(R9, 0x20000420)  returns 0x00 (0000ms, 1448ms total)
T7018 022:729 JLINK_WriteReg(R10, 0x00000000)  returns 0x00 (0000ms, 1448ms total)
T7018 022:729 JLINK_WriteReg(R11, 0x00000000)  returns 0x00 (0000ms, 1448ms total)
T7018 022:729 JLINK_WriteReg(R12, 0x00000000)  returns 0x00 (0000ms, 1448ms total)
T7018 022:729 JLINK_WriteReg(R13 (SP), 0x20001000)  returns 0x00 (0000ms, 1448ms total)
T7018 022:729 JLINK_WriteReg(R14, 0x20000001)  returns 0x00 (0000ms, 1448ms total)
T7018 022:729 JLINK_WriteReg(R15 (PC), 0x20000094)  returns 0x00 (0000ms, 1448ms total)
T7018 022:729 JLINK_WriteReg(XPSR, 0x01000000)  returns 0x00 (0000ms, 1448ms total)
T7018 022:729 JLINK_WriteReg(MSP, 0x20001000)  returns 0x00 (0000ms, 1448ms total)
T7018 022:729 JLINK_WriteReg(PSP, 0x20001000)  returns 0x00 (0000ms, 1448ms total)
T7018 022:729 JLINK_WriteReg(CFBP, 0x00000000)  returns 0x00 (0001ms, 1449ms total)
T7018 022:730 JLINK_SetBPEx(Addr = 0x20000000, Type = 0xFFFFFFF2)  returns 0x00000002 (0000ms, 1449ms total)
T7018 022:730 JLINK_Go() -- CPU_ReadMem(4 bytes @ 0xE0001000) (0002ms, 1451ms total)
T7018 022:732 JLINK_IsHalted()  returns FALSE (0000ms, 1451ms total)
T7018 022:769 JLINK_IsHalted()  returns FALSE (0000ms, 1451ms total)
T7018 022:771 JLINK_IsHalted()  returns FALSE (0000ms, 1451ms total)
T7018 022:773 JLINK_IsHalted()  returns FALSE (0000ms, 1451ms total)
T7018 022:776 JLINK_IsHalted()  returns FALSE (0000ms, 1451ms total)
T7018 022:778 JLINK_IsHalted()  returns FALSE (0000ms, 1451ms total)
T7018 022:780 JLINK_IsHalted()  returns FALSE (0000ms, 1451ms total)
T7018 022:783 JLINK_IsHalted()  returns FALSE (0000ms, 1451ms total)
T7018 022:785 JLINK_IsHalted()  returns FALSE (0000ms, 1451ms total)
T7018 022:787 JLINK_IsHalted()  returns FALSE (0000ms, 1451ms total)
T7018 022:789 JLINK_IsHalted()  returns FALSE (0000ms, 1451ms total)
T7018 022:792 JLINK_IsHalted()  returns FALSE (0000ms, 1451ms total)
T7018 022:794 JLINK_IsHalted()  returns FALSE (0000ms, 1451ms total)
T7018 022:796 JLINK_IsHalted()  returns FALSE (0000ms, 1451ms total)
T7018 022:800 JLINK_IsHalted()  returns FALSE (0000ms, 1451ms total)
T7018 022:802 JLINK_IsHalted()  returns FALSE (0000ms, 1451ms total)
T7018 022:804 JLINK_IsHalted()  returns FALSE (0000ms, 1451ms total)
T7018 022:807 JLINK_IsHalted()  returns FALSE (0000ms, 1451ms total)
T7018 022:809 JLINK_IsHalted()  returns FALSE (0000ms, 1451ms total)
T7018 022:811 JLINK_IsHalted()  returns FALSE (0000ms, 1451ms total)
T7018 022:813 JLINK_IsHalted()  returns FALSE (0000ms, 1451ms total)
T7018 022:816 JLINK_IsHalted()  returns FALSE (0000ms, 1451ms total)
T7018 022:818 JLINK_IsHalted()  returns FALSE (0000ms, 1451ms total)
T7018 022:820 JLINK_IsHalted()  returns FALSE (0000ms, 1451ms total)
T7018 022:823 JLINK_IsHalted()  returns FALSE (0000ms, 1451ms total)
T7018 022:825 JLINK_IsHalted()  returns FALSE (0000ms, 1451ms total)
T7018 022:827 JLINK_IsHalted()  returns FALSE (0000ms, 1451ms total)
T7018 022:829 JLINK_IsHalted()  returns FALSE (0000ms, 1451ms total)
T7018 022:832 JLINK_IsHalted()  returns FALSE (0000ms, 1451ms total)
T7018 022:834 JLINK_IsHalted()  returns FALSE (0000ms, 1451ms total)
T7018 022:836 JLINK_IsHalted()  returns FALSE (0000ms, 1451ms total)
T7018 022:839 JLINK_IsHalted()  returns FALSE (0000ms, 1451ms total)
T7018 022:841 JLINK_IsHalted()  returns FALSE (0000ms, 1451ms total)
T7018 022:843 JLINK_IsHalted()  returns FALSE (0000ms, 1451ms total)
T7018 022:845 JLINK_IsHalted()  returns FALSE (0000ms, 1451ms total)
T7018 022:849 JLINK_IsHalted()  returns FALSE (0000ms, 1451ms total)
T7018 022:851 JLINK_IsHalted()  returns FALSE (0000ms, 1451ms total)
T7018 022:855 JLINK_IsHalted()  returns FALSE (0000ms, 1451ms total)
T7018 022:857 JLINK_IsHalted() -- CPU_ReadMem(2 bytes @ 0x20000000)  returns TRUE (0002ms, 1453ms total)
T7018 022:859 JLINK_ReadReg(R15 (PC))  returns 0x20000000 (0000ms, 1451ms total)
T7018 022:859 JLINK_ClrBPEx(BPHandle = 0x00000002)  returns 0x00 (0000ms, 1451ms total)
T7018 022:859 JLINK_ReadReg(R0)  returns 0x00000000 (0000ms, 1451ms total)
T7018 022:911 JLINK_WriteReg(R0, 0x00000001)  returns 0x00 (0001ms, 1452ms total)
T7018 022:912 JLINK_WriteReg(R1, 0x00B71B00)  returns 0x00 (0000ms, 1452ms total)
T7018 022:912 JLINK_WriteReg(R2, 0x00000001)  returns 0x00 (0000ms, 1452ms total)
T7018 022:912 JLINK_WriteReg(R3, 0x00000000)  returns 0x00 (0000ms, 1452ms total)
T7018 022:912 JLINK_WriteReg(R4, 0x00000000)  returns 0x00 (0000ms, 1452ms total)
T7018 022:912 JLINK_WriteReg(R5, 0x00000000)  returns 0x00 (0000ms, 1452ms total)
T7018 022:912 JLINK_WriteReg(R6, 0x00000000)  returns 0x00 (0000ms, 1452ms total)
T7018 022:912 JLINK_WriteReg(R7, 0x00000000)  returns 0x00 (0000ms, 1452ms total)
T7018 022:912 JLINK_WriteReg(R8, 0x00000000)  returns 0x00 (0000ms, 1452ms total)
T7018 022:912 JLINK_WriteReg(R9, 0x20000420)  returns 0x00 (0000ms, 1452ms total)
T7018 022:912 JLINK_WriteReg(R10, 0x00000000)  returns 0x00 (0000ms, 1452ms total)
T7018 022:912 JLINK_WriteReg(R11, 0x00000000)  returns 0x00 (0000ms, 1452ms total)
T7018 022:912 JLINK_WriteReg(R12, 0x00000000)  returns 0x00 (0000ms, 1452ms total)
T7018 022:912 JLINK_WriteReg(R13 (SP), 0x20001000)  returns 0x00 (0000ms, 1452ms total)
T7018 022:912 JLINK_WriteReg(R14, 0x20000001)  returns 0x00 (0000ms, 1452ms total)
T7018 022:912 JLINK_WriteReg(R15 (PC), 0x20000070)  returns 0x00 (0000ms, 1452ms total)
T7018 022:912 JLINK_WriteReg(XPSR, 0x01000000)  returns 0x00 (0000ms, 1452ms total)
T7018 022:912 JLINK_WriteReg(MSP, 0x20001000)  returns 0x00 (0000ms, 1452ms total)
T7018 022:912 JLINK_WriteReg(PSP, 0x20001000)  returns 0x00 (0000ms, 1452ms total)
T7018 022:912 JLINK_WriteReg(CFBP, 0x00000000)  returns 0x00 (0000ms, 1452ms total)
T7018 022:912 JLINK_SetBPEx(Addr = 0x20000000, Type = 0xFFFFFFF2)  returns 0x00000003 (0000ms, 1452ms total)
T7018 022:912 JLINK_Go() -- CPU_ReadMem(4 bytes @ 0xE0001000) (0003ms, 1455ms total)
T7018 022:915 JLINK_IsHalted() -- CPU_ReadMem(2 bytes @ 0x20000000)  returns TRUE (0004ms, 1459ms total)
T7018 022:919 JLINK_ReadReg(R15 (PC))  returns 0x20000000 (0000ms, 1455ms total)
T7018 022:919 JLINK_ClrBPEx(BPHandle = 0x00000003)  returns 0x00 (0000ms, 1455ms total)
T7018 022:919 JLINK_ReadReg(R0)  returns 0x00000000 (0000ms, 1455ms total)
T7018 022:929 JLINK_WriteMem(0x20000000, 0x0428 Bytes, ...) - Data: 00 BE 0A E0 0D 78 2D 06 68 40 08 24 40 00 00 D3 ... -- CPU_WriteMem(1064 bytes @ 0x20000000)  returns 0x428 (0004ms, 1459ms total)
T7018 022:933 JLINK_WriteReg(R0, 0x00000000)  returns 0x00 (0000ms, 1459ms total)
T7018 022:933 JLINK_WriteReg(R1, 0x00B71B00)  returns 0x00 (0000ms, 1459ms total)
T7018 022:933 JLINK_WriteReg(R2, 0x00000002)  returns 0x00 (0000ms, 1459ms total)
T7018 022:933 JLINK_WriteReg(R3, 0x00000000)  returns 0x00 (0000ms, 1459ms total)
T7018 022:933 JLINK_WriteReg(R4, 0x00000000)  returns 0x00 (0000ms, 1459ms total)
T7018 022:933 JLINK_WriteReg(R5, 0x00000000)  returns 0x00 (0000ms, 1459ms total)
T7018 022:933 JLINK_WriteReg(R6, 0x00000000)  returns 0x00 (0000ms, 1459ms total)
T7018 022:933 JLINK_WriteReg(R7, 0x00000000)  returns 0x00 (0000ms, 1459ms total)
T7018 022:933 JLINK_WriteReg(R8, 0x00000000)  returns 0x00 (0000ms, 1459ms total)
T7018 022:933 JLINK_WriteReg(R9, 0x20000420)  returns 0x00 (0000ms, 1459ms total)
T7018 022:933 JLINK_WriteReg(R10, 0x00000000)  returns 0x00 (0000ms, 1459ms total)
T7018 022:934 JLINK_WriteReg(R11, 0x00000000)  returns 0x00 (0000ms, 1460ms total)
T7018 022:934 JLINK_WriteReg(R12, 0x00000000)  returns 0x00 (0000ms, 1460ms total)
T7018 022:934 JLINK_WriteReg(R13 (SP), 0x20001000)  returns 0x00 (0000ms, 1460ms total)
T7018 022:934 JLINK_WriteReg(R14, 0x20000001)  returns 0x00 (0000ms, 1460ms total)
T7018 022:934 JLINK_WriteReg(R15 (PC), 0x20000020)  returns 0x00 (0000ms, 1460ms total)
T7018 022:934 JLINK_WriteReg(XPSR, 0x01000000)  returns 0x00 (0000ms, 1460ms total)
T7018 022:934 JLINK_WriteReg(MSP, 0x20001000)  returns 0x00 (0000ms, 1460ms total)
T7018 022:934 JLINK_WriteReg(PSP, 0x20001000)  returns 0x00 (0000ms, 1460ms total)
T7018 022:934 JLINK_WriteReg(CFBP, 0x00000000)  returns 0x00 (0000ms, 1460ms total)
T7018 022:934 JLINK_SetBPEx(Addr = 0x20000000, Type = 0xFFFFFFF2) -- CPU_ReadMem(2 bytes @ 0x20000000)  returns 0x00000004 (0002ms, 1462ms total)
T7018 022:936 JLINK_Go() -- CPU_WriteMem(2 bytes @ 0x20000000) -- CPU_ReadMem(4 bytes @ 0xE0001000) (0003ms, 1465ms total)
T7018 022:939 JLINK_IsHalted() -- CPU_ReadMem(2 bytes @ 0x20000000)  returns TRUE (0003ms, 1468ms total)
T7018 022:942 JLINK_ReadReg(R15 (PC))  returns 0x20000000 (0000ms, 1465ms total)
T7018 022:942 JLINK_ClrBPEx(BPHandle = 0x00000004)  returns 0x00 (0000ms, 1465ms total)
T7018 022:942 JLINK_ReadReg(R0)  returns 0x00000000 (0000ms, 1465ms total)
T7018 022:942 JLINK_WriteMem(0x20000450, 0x0200 Bytes, ...) - Data: 00 00 01 20 B1 04 00 00 DD 04 00 00 E1 04 00 00 ... -- CPU_WriteMem(512 bytes @ 0x20000450)  returns 0x200 (0003ms, 1468ms total)
T7018 022:946 JLINK_WriteReg(R0, 0x00000000)  returns 0x00 (0000ms, 1468ms total)
T7018 022:946 JLINK_WriteReg(R1, 0x00000200)  returns 0x00 (0000ms, 1468ms total)
T7018 022:946 JLINK_WriteReg(R2, 0x20000450)  returns 0x00 (0000ms, 1468ms total)
T7018 022:946 JLINK_WriteReg(R3, 0x00000000)  returns 0x00 (0000ms, 1468ms total)
T7018 022:946 JLINK_WriteReg(R4, 0x00000000)  returns 0x00 (0000ms, 1468ms total)
T7018 022:946 JLINK_WriteReg(R5, 0x00000000)  returns 0x00 (0000ms, 1468ms total)
T7018 022:946 JLINK_WriteReg(R6, 0x00000000)  returns 0x00 (0000ms, 1468ms total)
T7018 022:946 JLINK_WriteReg(R7, 0x00000000)  returns 0x00 (0000ms, 1468ms total)
T7018 022:946 JLINK_WriteReg(R8, 0x00000000)  returns 0x00 (0000ms, 1468ms total)
T7018 022:946 JLINK_WriteReg(R9, 0x20000420)  returns 0x00 (0000ms, 1468ms total)
T7018 022:946 JLINK_WriteReg(R10, 0x00000000)  returns 0x00 (0000ms, 1468ms total)
T7018 022:946 JLINK_WriteReg(R11, 0x00000000)  returns 0x00 (0000ms, 1468ms total)
T7018 022:946 JLINK_WriteReg(R12, 0x00000000)  returns 0x00 (0000ms, 1468ms total)
T7018 022:946 JLINK_WriteReg(R13 (SP), 0x20001000)  returns 0x00 (0000ms, 1468ms total)
T7018 022:946 JLINK_WriteReg(R14, 0x20000001)  returns 0x00 (0000ms, 1468ms total)
T7018 022:946 JLINK_WriteReg(R15 (PC), 0x200000DE)  returns 0x00 (0000ms, 1468ms total)
T7018 022:946 JLINK_WriteReg(XPSR, 0x01000000)  returns 0x00 (0000ms, 1468ms total)
T7018 022:946 JLINK_WriteReg(MSP, 0x20001000)  returns 0x00 (0000ms, 1468ms total)
T7018 022:946 JLINK_WriteReg(PSP, 0x20001000)  returns 0x00 (0000ms, 1468ms total)
T7018 022:946 JLINK_WriteReg(CFBP, 0x00000000)  returns 0x00 (0000ms, 1468ms total)
T7018 022:946 JLINK_SetBPEx(Addr = 0x20000000, Type = 0xFFFFFFF2)  returns 0x00000005 (0000ms, 1468ms total)
T7018 022:946 JLINK_Go() -- CPU_ReadMem(4 bytes @ 0xE0001000) (0003ms, 1471ms total)
T7018 022:949 JLINK_IsHalted()  returns FALSE (0001ms, 1472ms total)
T7018 022:963 JLINK_IsHalted() -- CPU_ReadMem(2 bytes @ 0x20000000)  returns TRUE (0002ms, 1473ms total)
T7018 022:966 JLINK_ReadReg(R15 (PC))  returns 0x20000000 (0000ms, 1471ms total)
T7018 022:966 JLINK_ClrBPEx(BPHandle = 0x00000005)  returns 0x00 (0000ms, 1471ms total)
T7018 022:966 JLINK_ReadReg(R0)  returns 0x00000000 (0000ms, 1471ms total)
T7018 022:967 JLINK_WriteMem(0x20000450, 0x0200 Bytes, ...) - Data: D9 04 00 00 D9 04 00 00 D9 04 00 00 D9 04 00 00 ... -- CPU_WriteMem(512 bytes @ 0x20000450)  returns 0x200 (0002ms, 1473ms total)
T7018 022:969 JLINK_WriteReg(R0, 0x00000200)  returns 0x00 (0000ms, 1473ms total)
T7018 022:969 JLINK_WriteReg(R1, 0x00000200)  returns 0x00 (0000ms, 1473ms total)
T7018 022:969 JLINK_WriteReg(R2, 0x20000450)  returns 0x00 (0000ms, 1473ms total)
T7018 022:969 JLINK_WriteReg(R3, 0x00000000)  returns 0x00 (0000ms, 1473ms total)
T7018 022:969 JLINK_WriteReg(R4, 0x00000000)  returns 0x00 (0001ms, 1474ms total)
T7018 022:970 JLINK_WriteReg(R5, 0x00000000)  returns 0x00 (0000ms, 1474ms total)
T7018 022:970 JLINK_WriteReg(R6, 0x00000000)  returns 0x00 (0000ms, 1474ms total)
T7018 022:970 JLINK_WriteReg(R7, 0x00000000)  returns 0x00 (0000ms, 1474ms total)
T7018 022:970 JLINK_WriteReg(R8, 0x00000000)  returns 0x00 (0000ms, 1474ms total)
T7018 022:970 JLINK_WriteReg(R9, 0x20000420)  returns 0x00 (0000ms, 1474ms total)
T7018 022:970 JLINK_WriteReg(R10, 0x00000000)  returns 0x00 (0000ms, 1474ms total)
T7018 022:970 JLINK_WriteReg(R11, 0x00000000)  returns 0x00 (0000ms, 1474ms total)
T7018 022:970 JLINK_WriteReg(R12, 0x00000000)  returns 0x00 (0000ms, 1474ms total)
T7018 022:970 JLINK_WriteReg(R13 (SP), 0x20001000)  returns 0x00 (0000ms, 1474ms total)
T7018 022:970 JLINK_WriteReg(R14, 0x20000001)  returns 0x00 (0000ms, 1474ms total)
T7018 022:970 JLINK_WriteReg(R15 (PC), 0x200000DE)  returns 0x00 (0000ms, 1474ms total)
T7018 022:970 JLINK_WriteReg(XPSR, 0x01000000)  returns 0x00 (0000ms, 1474ms total)
T7018 022:970 JLINK_WriteReg(MSP, 0x20001000)  returns 0x00 (0001ms, 1475ms total)
T7018 022:971 JLINK_WriteReg(PSP, 0x20001000)  returns 0x00 (0000ms, 1475ms total)
T7018 022:971 JLINK_WriteReg(CFBP, 0x00000000)  returns 0x00 (0000ms, 1475ms total)
T7018 022:971 JLINK_SetBPEx(Addr = 0x20000000, Type = 0xFFFFFFF2)  returns 0x00000006 (0000ms, 1475ms total)
T7018 022:971 JLINK_Go() -- CPU_ReadMem(4 bytes @ 0xE0001000) (0002ms, 1477ms total)
T7018 022:973 JLINK_IsHalted()  returns FALSE (0001ms, 1478ms total)
T7018 022:978 JLINK_IsHalted()  returns FALSE (0000ms, 1477ms total)
T7018 022:980 JLINK_IsHalted()  returns FALSE (0000ms, 1477ms total)
T7018 022:982 JLINK_IsHalted()  returns FALSE (0000ms, 1477ms total)
T7018 022:984 JLINK_IsHalted() -- CPU_ReadMem(2 bytes @ 0x20000000)  returns TRUE (0002ms, 1479ms total)
T7018 022:986 JLINK_ReadReg(R15 (PC))  returns 0x20000000 (0000ms, 1477ms total)
T7018 022:986 JLINK_ClrBPEx(BPHandle = 0x00000006)  returns 0x00 (0000ms, 1477ms total)
T7018 022:986 JLINK_ReadReg(R0)  returns 0x00000000 (0001ms, 1478ms total)
T7018 022:987 JLINK_WriteMem(0x20000450, 0x0200 Bytes, ...) - Data: FF FF FF FF FF FF FF FF FF FF FF FF FE FF FF FF ... -- CPU_WriteMem(512 bytes @ 0x20000450)  returns 0x200 (0002ms, 1480ms total)
T7018 022:989 JLINK_WriteReg(R0, 0x00000400)  returns 0x00 (0000ms, 1480ms total)
T7018 022:989 JLINK_WriteReg(R1, 0x00000200)  returns 0x00 (0000ms, 1480ms total)
T7018 022:989 JLINK_WriteReg(R2, 0x20000450)  returns 0x00 (0001ms, 1481ms total)
T7018 022:990 JLINK_WriteReg(R3, 0x00000000)  returns 0x00 (0000ms, 1481ms total)
T7018 022:990 JLINK_WriteReg(R4, 0x00000000)  returns 0x00 (0000ms, 1481ms total)
T7018 022:990 JLINK_WriteReg(R5, 0x00000000)  returns 0x00 (0000ms, 1481ms total)
T7018 022:990 JLINK_WriteReg(R6, 0x00000000)  returns 0x00 (0000ms, 1481ms total)
T7018 022:990 JLINK_WriteReg(R7, 0x00000000)  returns 0x00 (0000ms, 1481ms total)
T7018 022:990 JLINK_WriteReg(R8, 0x00000000)  returns 0x00 (0000ms, 1481ms total)
T7018 022:990 JLINK_WriteReg(R9, 0x20000420)  returns 0x00 (0000ms, 1481ms total)
T7018 022:990 JLINK_WriteReg(R10, 0x00000000)  returns 0x00 (0000ms, 1481ms total)
T7018 022:990 JLINK_WriteReg(R11, 0x00000000)  returns 0x00 (0000ms, 1481ms total)
T7018 022:990 JLINK_WriteReg(R12, 0x00000000)  returns 0x00 (0000ms, 1481ms total)
T7018 022:990 JLINK_WriteReg(R13 (SP), 0x20001000)  returns 0x00 (0000ms, 1481ms total)
T7018 022:990 JLINK_WriteReg(R14, 0x20000001)  returns 0x00 (0000ms, 1481ms total)
T7018 022:990 JLINK_WriteReg(R15 (PC), 0x200000DE)  returns 0x00 (0000ms, 1481ms total)
T7018 022:990 JLINK_WriteReg(XPSR, 0x01000000)  returns 0x00 (0000ms, 1481ms total)
T7018 022:990 JLINK_WriteReg(MSP, 0x20001000)  returns 0x00 (0000ms, 1481ms total)
T7018 022:990 JLINK_WriteReg(PSP, 0x20001000)  returns 0x00 (0000ms, 1481ms total)
T7018 022:990 JLINK_WriteReg(CFBP, 0x00000000)  returns 0x00 (0000ms, 1481ms total)
T7018 022:990 JLINK_SetBPEx(Addr = 0x20000000, Type = 0xFFFFFFF2)  returns 0x00000007 (0000ms, 1481ms total)
T7018 022:990 JLINK_Go() -- CPU_ReadMem(4 bytes @ 0xE0001000) (0003ms, 1484ms total)
T7018 022:993 JLINK_IsHalted()  returns FALSE (0000ms, 1484ms total)
T7018 022:997 JLINK_IsHalted()  returns FALSE (0000ms, 1484ms total)
T7018 022:999 JLINK_IsHalted()  returns FALSE (0000ms, 1484ms total)
T7018 023:001 JLINK_IsHalted()  returns FALSE (0000ms, 1484ms total)
T7018 023:003 JLINK_IsHalted() -- CPU_ReadMem(2 bytes @ 0x20000000)  returns TRUE (0002ms, 1486ms total)
T7018 023:005 JLINK_ReadReg(R15 (PC))  returns 0x20000000 (0000ms, 1484ms total)
T7018 023:005 JLINK_ClrBPEx(BPHandle = 0x00000007)  returns 0x00 (0000ms, 1484ms total)
T7018 023:005 JLINK_ReadReg(R0)  returns 0x00000000 (0000ms, 1484ms total)
T7018 023:006 JLINK_WriteMem(0x20000450, 0x0200 Bytes, ...) - Data: C2 11 F9 D0 C0 1A 0A 06 03 D0 C0 1E 10 BD C0 1A ... -- CPU_WriteMem(512 bytes @ 0x20000450)  returns 0x200 (0002ms, 1486ms total)
T7018 023:008 JLINK_WriteReg(R0, 0x00000600)  returns 0x00 (0000ms, 1486ms total)
T7018 023:008 JLINK_WriteReg(R1, 0x00000200)  returns 0x00 (0000ms, 1486ms total)
T7018 023:008 JLINK_WriteReg(R2, 0x20000450)  returns 0x00 (0000ms, 1486ms total)
T7018 023:008 JLINK_WriteReg(R3, 0x00000000)  returns 0x00 (0000ms, 1486ms total)
T7018 023:008 JLINK_WriteReg(R4, 0x00000000)  returns 0x00 (0000ms, 1486ms total)
T7018 023:008 JLINK_WriteReg(R5, 0x00000000)  returns 0x00 (0000ms, 1486ms total)
T7018 023:008 JLINK_WriteReg(R6, 0x00000000)  returns 0x00 (0000ms, 1486ms total)
T7018 023:008 JLINK_WriteReg(R7, 0x00000000)  returns 0x00 (0000ms, 1486ms total)
T7018 023:008 JLINK_WriteReg(R8, 0x00000000)  returns 0x00 (0000ms, 1486ms total)
T7018 023:008 JLINK_WriteReg(R9, 0x20000420)  returns 0x00 (0000ms, 1486ms total)
T7018 023:008 JLINK_WriteReg(R10, 0x00000000)  returns 0x00 (0000ms, 1486ms total)
T7018 023:008 JLINK_WriteReg(R11, 0x00000000)  returns 0x00 (0000ms, 1486ms total)
T7018 023:008 JLINK_WriteReg(R12, 0x00000000)  returns 0x00 (0000ms, 1486ms total)
T7018 023:008 JLINK_WriteReg(R13 (SP), 0x20001000)  returns 0x00 (0000ms, 1486ms total)
T7018 023:008 JLINK_WriteReg(R14, 0x20000001)  returns 0x00 (0000ms, 1486ms total)
T7018 023:008 JLINK_WriteReg(R15 (PC), 0x200000DE)  returns 0x00 (0000ms, 1486ms total)
T7018 023:008 JLINK_WriteReg(XPSR, 0x01000000)  returns 0x00 (0000ms, 1486ms total)
T7018 023:008 JLINK_WriteReg(MSP, 0x20001000)  returns 0x00 (0001ms, 1487ms total)
T7018 023:009 JLINK_WriteReg(PSP, 0x20001000)  returns 0x00 (0000ms, 1487ms total)
T7018 023:009 JLINK_WriteReg(CFBP, 0x00000000)  returns 0x00 (0000ms, 1487ms total)
T7018 023:009 JLINK_SetBPEx(Addr = 0x20000000, Type = 0xFFFFFFF2)  returns 0x00000008 (0000ms, 1487ms total)
T7018 023:009 JLINK_Go() -- CPU_ReadMem(4 bytes @ 0xE0001000) (0002ms, 1489ms total)
T7018 023:011 JLINK_IsHalted()  returns FALSE (0000ms, 1489ms total)
T7018 023:014 JLINK_IsHalted()  returns FALSE (0000ms, 1489ms total)
T7018 023:016 JLINK_IsHalted()  returns FALSE (0000ms, 1489ms total)
T7018 023:018 JLINK_IsHalted()  returns FALSE (0000ms, 1489ms total)
T7018 023:020 JLINK_IsHalted()  returns FALSE (0000ms, 1489ms total)
T7018 023:022 JLINK_IsHalted() -- CPU_ReadMem(2 bytes @ 0x20000000)  returns TRUE (0002ms, 1491ms total)
T7018 023:024 JLINK_ReadReg(R15 (PC))  returns 0x20000000 (0000ms, 1489ms total)
T7018 023:024 JLINK_ClrBPEx(BPHandle = 0x00000008)  returns 0x00 (0000ms, 1489ms total)
T7018 023:024 JLINK_ReadReg(R0)  returns 0x00000000 (0000ms, 1489ms total)
T7018 023:025 JLINK_WriteMem(0x20000450, 0x0200 Bytes, ...) - Data: 68 B9 00 F0 51 F9 A0 F5 00 40 B0 FA 80 F0 40 09 ... -- CPU_WriteMem(512 bytes @ 0x20000450)  returns 0x200 (0002ms, 1491ms total)
T7018 023:027 JLINK_WriteReg(R0, 0x00000800)  returns 0x00 (0000ms, 1491ms total)
T7018 023:027 JLINK_WriteReg(R1, 0x00000200)  returns 0x00 (0000ms, 1491ms total)
T7018 023:027 JLINK_WriteReg(R2, 0x20000450)  returns 0x00 (0000ms, 1491ms total)
T7018 023:027 JLINK_WriteReg(R3, 0x00000000)  returns 0x00 (0000ms, 1491ms total)
T7018 023:027 JLINK_WriteReg(R4, 0x00000000)  returns 0x00 (0000ms, 1491ms total)
T7018 023:027 JLINK_WriteReg(R5, 0x00000000)  returns 0x00 (0000ms, 1491ms total)
T7018 023:027 JLINK_WriteReg(R6, 0x00000000)  returns 0x00 (0000ms, 1491ms total)
T7018 023:027 JLINK_WriteReg(R7, 0x00000000)  returns 0x00 (0000ms, 1491ms total)
T7018 023:027 JLINK_WriteReg(R8, 0x00000000)  returns 0x00 (0000ms, 1491ms total)
T7018 023:027 JLINK_WriteReg(R9, 0x20000420)  returns 0x00 (0000ms, 1491ms total)
T7018 023:027 JLINK_WriteReg(R10, 0x00000000)  returns 0x00 (0000ms, 1491ms total)
T7018 023:027 JLINK_WriteReg(R11, 0x00000000)  returns 0x00 (0000ms, 1491ms total)
T7018 023:027 JLINK_WriteReg(R12, 0x00000000)  returns 0x00 (0000ms, 1491ms total)
T7018 023:027 JLINK_WriteReg(R13 (SP), 0x20001000)  returns 0x00 (0001ms, 1492ms total)
T7018 023:028 JLINK_WriteReg(R14, 0x20000001)  returns 0x00 (0000ms, 1492ms total)
T7018 023:028 JLINK_WriteReg(R15 (PC), 0x200000DE)  returns 0x00 (0000ms, 1492ms total)
T7018 023:028 JLINK_WriteReg(XPSR, 0x01000000)  returns 0x00 (0000ms, 1492ms total)
T7018 023:028 JLINK_WriteReg(MSP, 0x20001000)  returns 0x00 (0000ms, 1492ms total)
T7018 023:028 JLINK_WriteReg(PSP, 0x20001000)  returns 0x00 (0000ms, 1492ms total)
T7018 023:028 JLINK_WriteReg(CFBP, 0x00000000)  returns 0x00 (0000ms, 1492ms total)
T7018 023:028 JLINK_SetBPEx(Addr = 0x20000000, Type = 0xFFFFFFF2)  returns 0x00000009 (0000ms, 1492ms total)
T7018 023:028 JLINK_Go() -- CPU_ReadMem(4 bytes @ 0xE0001000) (0002ms, 1494ms total)
T7018 023:030 JLINK_IsHalted()  returns FALSE (0001ms, 1495ms total)
T7018 023:033 JLINK_IsHalted()  returns FALSE (0000ms, 1494ms total)
T7018 023:035 JLINK_IsHalted()  returns FALSE (0000ms, 1494ms total)
T7018 023:037 JLINK_IsHalted()  returns FALSE (0000ms, 1494ms total)
T7018 023:039 JLINK_IsHalted()  returns FALSE (0000ms, 1494ms total)
T7018 023:041 JLINK_IsHalted() -- CPU_ReadMem(2 bytes @ 0x20000000)  returns TRUE (0002ms, 1496ms total)
T7018 023:043 JLINK_ReadReg(R15 (PC))  returns 0x20000000 (0000ms, 1494ms total)
T7018 023:043 JLINK_ClrBPEx(BPHandle = 0x00000009)  returns 0x00 (0000ms, 1494ms total)
T7018 023:043 JLINK_ReadReg(R0)  returns 0x00000000 (0000ms, 1494ms total)
T7018 023:044 JLINK_WriteMem(0x20000450, 0x0200 Bytes, ...) - Data: 00 F0 03 00 02 28 04 BF 0E 48 70 47 01 28 05 D0 ... -- CPU_WriteMem(512 bytes @ 0x20000450)  returns 0x200 (0002ms, 1496ms total)
T7018 023:046 JLINK_WriteReg(R0, 0x00000A00)  returns 0x00 (0000ms, 1496ms total)
T7018 023:046 JLINK_WriteReg(R1, 0x00000200)  returns 0x00 (0000ms, 1496ms total)
T7018 023:046 JLINK_WriteReg(R2, 0x20000450)  returns 0x00 (0000ms, 1496ms total)
T7018 023:046 JLINK_WriteReg(R3, 0x00000000)  returns 0x00 (0000ms, 1496ms total)
T7018 023:046 JLINK_WriteReg(R4, 0x00000000)  returns 0x00 (0000ms, 1496ms total)
T7018 023:046 JLINK_WriteReg(R5, 0x00000000)  returns 0x00 (0000ms, 1496ms total)
T7018 023:046 JLINK_WriteReg(R6, 0x00000000)  returns 0x00 (0000ms, 1496ms total)
T7018 023:046 JLINK_WriteReg(R7, 0x00000000)  returns 0x00 (0000ms, 1496ms total)
T7018 023:046 JLINK_WriteReg(R8, 0x00000000)  returns 0x00 (0000ms, 1496ms total)
T7018 023:046 JLINK_WriteReg(R9, 0x20000420)  returns 0x00 (0000ms, 1496ms total)
T7018 023:046 JLINK_WriteReg(R10, 0x00000000)  returns 0x00 (0000ms, 1496ms total)
T7018 023:046 JLINK_WriteReg(R11, 0x00000000)  returns 0x00 (0000ms, 1496ms total)
T7018 023:046 JLINK_WriteReg(R12, 0x00000000)  returns 0x00 (0000ms, 1496ms total)
T7018 023:046 JLINK_WriteReg(R13 (SP), 0x20001000)  returns 0x00 (0001ms, 1497ms total)
T7018 023:047 JLINK_WriteReg(R14, 0x20000001)  returns 0x00 (0000ms, 1497ms total)
T7018 023:047 JLINK_WriteReg(R15 (PC), 0x200000DE)  returns 0x00 (0000ms, 1497ms total)
T7018 023:047 JLINK_WriteReg(XPSR, 0x01000000)  returns 0x00 (0000ms, 1497ms total)
T7018 023:047 JLINK_WriteReg(MSP, 0x20001000)  returns 0x00 (0000ms, 1497ms total)
T7018 023:047 JLINK_WriteReg(PSP, 0x20001000)  returns 0x00 (0000ms, 1497ms total)
T7018 023:047 JLINK_WriteReg(CFBP, 0x00000000)  returns 0x00 (0000ms, 1497ms total)
T7018 023:047 JLINK_SetBPEx(Addr = 0x20000000, Type = 0xFFFFFFF2)  returns 0x0000000A (0000ms, 1497ms total)
T7018 023:047 JLINK_Go() -- CPU_ReadMem(4 bytes @ 0xE0001000) (0002ms, 1499ms total)
T7018 023:049 JLINK_IsHalted()  returns FALSE (0001ms, 1500ms total)
T7018 023:053 JLINK_IsHalted()  returns FALSE (0000ms, 1499ms total)
T7018 023:055 JLINK_IsHalted()  returns FALSE (0000ms, 1499ms total)
T7018 023:057 JLINK_IsHalted()  returns FALSE (0000ms, 1499ms total)
T7018 023:059 JLINK_IsHalted() -- CPU_ReadMem(2 bytes @ 0x20000000)  returns TRUE (0002ms, 1501ms total)
T7018 023:061 JLINK_ReadReg(R15 (PC))  returns 0x20000000 (0000ms, 1499ms total)
T7018 023:061 JLINK_ClrBPEx(BPHandle = 0x0000000A)  returns 0x00 (0000ms, 1499ms total)
T7018 023:061 JLINK_ReadReg(R0)  returns 0x00000000 (0000ms, 1499ms total)
T7018 023:062 JLINK_WriteMem(0x20000450, 0x0200 Bytes, ...) - Data: 04 48 01 E0 00 BF 01 30 00 28 FB D1 00 20 10 BD ... -- CPU_WriteMem(512 bytes @ 0x20000450)  returns 0x200 (0002ms, 1501ms total)
T7018 023:064 JLINK_WriteReg(R0, 0x00000C00)  returns 0x00 (0000ms, 1501ms total)
T7018 023:064 JLINK_WriteReg(R1, 0x00000200)  returns 0x00 (0000ms, 1501ms total)
T7018 023:064 JLINK_WriteReg(R2, 0x20000450)  returns 0x00 (0000ms, 1501ms total)
T7018 023:064 JLINK_WriteReg(R3, 0x00000000)  returns 0x00 (0000ms, 1501ms total)
T7018 023:064 JLINK_WriteReg(R4, 0x00000000)  returns 0x00 (0000ms, 1501ms total)
T7018 023:064 JLINK_WriteReg(R5, 0x00000000)  returns 0x00 (0000ms, 1501ms total)
T7018 023:064 JLINK_WriteReg(R6, 0x00000000)  returns 0x00 (0000ms, 1501ms total)
T7018 023:064 JLINK_WriteReg(R7, 0x00000000)  returns 0x00 (0000ms, 1501ms total)
T7018 023:064 JLINK_WriteReg(R8, 0x00000000)  returns 0x00 (0000ms, 1501ms total)
T7018 023:064 JLINK_WriteReg(R9, 0x20000420)  returns 0x00 (0000ms, 1501ms total)
T7018 023:064 JLINK_WriteReg(R10, 0x00000000)  returns 0x00 (0000ms, 1501ms total)
T7018 023:064 JLINK_WriteReg(R11, 0x00000000)  returns 0x00 (0000ms, 1501ms total)
T7018 023:064 JLINK_WriteReg(R12, 0x00000000)  returns 0x00 (0000ms, 1501ms total)
T7018 023:064 JLINK_WriteReg(R13 (SP), 0x20001000)  returns 0x00 (0001ms, 1502ms total)
T7018 023:065 JLINK_WriteReg(R14, 0x20000001)  returns 0x00 (0000ms, 1502ms total)
T7018 023:065 JLINK_WriteReg(R15 (PC), 0x200000DE)  returns 0x00 (0000ms, 1502ms total)
T7018 023:065 JLINK_WriteReg(XPSR, 0x01000000)  returns 0x00 (0000ms, 1502ms total)
T7018 023:065 JLINK_WriteReg(MSP, 0x20001000)  returns 0x00 (0000ms, 1502ms total)
T7018 023:065 JLINK_WriteReg(PSP, 0x20001000)  returns 0x00 (0000ms, 1502ms total)
T7018 023:065 JLINK_WriteReg(CFBP, 0x00000000)  returns 0x00 (0000ms, 1502ms total)
T7018 023:065 JLINK_SetBPEx(Addr = 0x20000000, Type = 0xFFFFFFF2)  returns 0x0000000B (0000ms, 1502ms total)
T7018 023:065 JLINK_Go() -- CPU_ReadMem(4 bytes @ 0xE0001000) (0002ms, 1504ms total)
T7018 023:067 JLINK_IsHalted()  returns FALSE (0001ms, 1505ms total)
T7018 023:070 JLINK_IsHalted()  returns FALSE (0000ms, 1504ms total)
T7018 023:072 JLINK_IsHalted()  returns FALSE (0000ms, 1504ms total)
T7018 023:074 JLINK_IsHalted()  returns FALSE (0000ms, 1504ms total)
T7018 023:076 JLINK_IsHalted()  returns FALSE (0000ms, 1504ms total)
T7018 023:078 JLINK_IsHalted() -- CPU_ReadMem(2 bytes @ 0x20000000)  returns TRUE (0002ms, 1506ms total)
T7018 023:080 JLINK_ReadReg(R15 (PC))  returns 0x20000000 (0000ms, 1504ms total)
T7018 023:080 JLINK_ClrBPEx(BPHandle = 0x0000000B)  returns 0x00 (0000ms, 1504ms total)
T7018 023:080 JLINK_ReadReg(R0)  returns 0x00000000 (0000ms, 1504ms total)
T7018 023:081 JLINK_WriteMem(0x20000450, 0x0200 Bytes, ...) - Data: 00 6A 00 F0 77 FA BF F3 4F 8F 80 BD 80 B5 03 48 ... -- CPU_WriteMem(512 bytes @ 0x20000450)  returns 0x200 (0002ms, 1506ms total)
T7018 023:083 JLINK_WriteReg(R0, 0x00000E00)  returns 0x00 (0000ms, 1506ms total)
T7018 023:083 JLINK_WriteReg(R1, 0x00000200)  returns 0x00 (0000ms, 1506ms total)
T7018 023:083 JLINK_WriteReg(R2, 0x20000450)  returns 0x00 (0000ms, 1506ms total)
T7018 023:083 JLINK_WriteReg(R3, 0x00000000)  returns 0x00 (0000ms, 1506ms total)
T7018 023:083 JLINK_WriteReg(R4, 0x00000000)  returns 0x00 (0000ms, 1506ms total)
T7018 023:083 JLINK_WriteReg(R5, 0x00000000)  returns 0x00 (0000ms, 1506ms total)
T7018 023:083 JLINK_WriteReg(R6, 0x00000000)  returns 0x00 (0000ms, 1506ms total)
T7018 023:083 JLINK_WriteReg(R7, 0x00000000)  returns 0x00 (0000ms, 1506ms total)
T7018 023:083 JLINK_WriteReg(R8, 0x00000000)  returns 0x00 (0000ms, 1506ms total)
T7018 023:083 JLINK_WriteReg(R9, 0x20000420)  returns 0x00 (0000ms, 1506ms total)
T7018 023:083 JLINK_WriteReg(R10, 0x00000000)  returns 0x00 (0000ms, 1506ms total)
T7018 023:083 JLINK_WriteReg(R11, 0x00000000)  returns 0x00 (0000ms, 1506ms total)
T7018 023:083 JLINK_WriteReg(R12, 0x00000000)  returns 0x00 (0000ms, 1506ms total)
T7018 023:083 JLINK_WriteReg(R13 (SP), 0x20001000)  returns 0x00 (0000ms, 1506ms total)
T7018 023:083 JLINK_WriteReg(R14, 0x20000001)  returns 0x00 (0000ms, 1506ms total)
T7018 023:084 JLINK_WriteReg(R15 (PC), 0x200000DE)  returns 0x00 (0000ms, 1506ms total)
T7018 023:084 JLINK_WriteReg(XPSR, 0x01000000)  returns 0x00 (0000ms, 1506ms total)
T7018 023:084 JLINK_WriteReg(MSP, 0x20001000)  returns 0x00 (0000ms, 1506ms total)
T7018 023:084 JLINK_WriteReg(PSP, 0x20001000)  returns 0x00 (0000ms, 1506ms total)
T7018 023:084 JLINK_WriteReg(CFBP, 0x00000000)  returns 0x00 (0000ms, 1506ms total)
T7018 023:084 JLINK_SetBPEx(Addr = 0x20000000, Type = 0xFFFFFFF2)  returns 0x0000000C (0000ms, 1506ms total)
T7018 023:084 JLINK_Go() -- CPU_ReadMem(4 bytes @ 0xE0001000) (0003ms, 1509ms total)
T7018 023:087 JLINK_IsHalted()  returns FALSE (0000ms, 1509ms total)
T7018 023:090 JLINK_IsHalted()  returns FALSE (0000ms, 1509ms total)
T7018 023:092 JLINK_IsHalted()  returns FALSE (0000ms, 1509ms total)
T7018 023:094 JLINK_IsHalted()  returns FALSE (0000ms, 1509ms total)
T7018 023:096 JLINK_IsHalted() -- CPU_ReadMem(2 bytes @ 0x20000000)  returns TRUE (0002ms, 1511ms total)
T7018 023:098 JLINK_ReadReg(R15 (PC))  returns 0x20000000 (0000ms, 1509ms total)
T7018 023:098 JLINK_ClrBPEx(BPHandle = 0x0000000C)  returns 0x00 (0000ms, 1509ms total)
T7018 023:098 JLINK_ReadReg(R0)  returns 0x00000000 (0000ms, 1509ms total)
T7018 023:099 JLINK_WriteMem(0x20000450, 0x0200 Bytes, ...) - Data: E1 61 E1 69 00 29 DD D1 13 E0 4F F4 00 30 E9 6A ... -- CPU_WriteMem(512 bytes @ 0x20000450)  returns 0x200 (0003ms, 1512ms total)
T7018 023:102 JLINK_WriteReg(R0, 0x00001000)  returns 0x00 (0000ms, 1512ms total)
T7018 023:102 JLINK_WriteReg(R1, 0x00000200)  returns 0x00 (0000ms, 1512ms total)
T7018 023:102 JLINK_WriteReg(R2, 0x20000450)  returns 0x00 (0000ms, 1512ms total)
T7018 023:102 JLINK_WriteReg(R3, 0x00000000)  returns 0x00 (0000ms, 1512ms total)
T7018 023:102 JLINK_WriteReg(R4, 0x00000000)  returns 0x00 (0000ms, 1512ms total)
T7018 023:102 JLINK_WriteReg(R5, 0x00000000)  returns 0x00 (0000ms, 1512ms total)
T7018 023:102 JLINK_WriteReg(R6, 0x00000000)  returns 0x00 (0000ms, 1512ms total)
T7018 023:102 JLINK_WriteReg(R7, 0x00000000)  returns 0x00 (0000ms, 1512ms total)
T7018 023:102 JLINK_WriteReg(R8, 0x00000000)  returns 0x00 (0000ms, 1512ms total)
T7018 023:102 JLINK_WriteReg(R9, 0x20000420)  returns 0x00 (0000ms, 1512ms total)
T7018 023:102 JLINK_WriteReg(R10, 0x00000000)  returns 0x00 (0000ms, 1512ms total)
T7018 023:102 JLINK_WriteReg(R11, 0x00000000)  returns 0x00 (0000ms, 1512ms total)
T7018 023:102 JLINK_WriteReg(R12, 0x00000000)  returns 0x00 (0000ms, 1512ms total)
T7018 023:102 JLINK_WriteReg(R13 (SP), 0x20001000)  returns 0x00 (0000ms, 1512ms total)
T7018 023:102 JLINK_WriteReg(R14, 0x20000001)  returns 0x00 (0000ms, 1512ms total)
T7018 023:102 JLINK_WriteReg(R15 (PC), 0x200000DE)  returns 0x00 (0000ms, 1512ms total)
T7018 023:102 JLINK_WriteReg(XPSR, 0x01000000)  returns 0x00 (0000ms, 1512ms total)
T7018 023:102 JLINK_WriteReg(MSP, 0x20001000)  returns 0x00 (0000ms, 1512ms total)
T7018 023:102 JLINK_WriteReg(PSP, 0x20001000)  returns 0x00 (0000ms, 1512ms total)
T7018 023:102 JLINK_WriteReg(CFBP, 0x00000000)  returns 0x00 (0000ms, 1512ms total)
T7018 023:102 JLINK_SetBPEx(Addr = 0x20000000, Type = 0xFFFFFFF2)  returns 0x0000000D (0000ms, 1512ms total)
T7018 023:102 JLINK_Go() -- CPU_ReadMem(4 bytes @ 0xE0001000) (0002ms, 1514ms total)
T7018 023:104 JLINK_IsHalted()  returns FALSE (0002ms, 1516ms total)
T7018 023:108 JLINK_IsHalted()  returns FALSE (0000ms, 1514ms total)
T7018 023:111 JLINK_IsHalted()  returns FALSE (0000ms, 1514ms total)
T7018 023:113 JLINK_IsHalted()  returns FALSE (0000ms, 1514ms total)
T7018 023:115 JLINK_IsHalted() -- CPU_ReadMem(2 bytes @ 0x20000000)  returns TRUE (0002ms, 1516ms total)
T7018 023:117 JLINK_ReadReg(R15 (PC))  returns 0x20000000 (0001ms, 1515ms total)
T7018 023:118 JLINK_ClrBPEx(BPHandle = 0x0000000D)  returns 0x00 (0000ms, 1515ms total)
T7018 023:118 JLINK_ReadReg(R0)  returns 0x00000000 (0000ms, 1515ms total)
T7018 023:118 JLINK_WriteMem(0x20000450, 0x0200 Bytes, ...) - Data: 08 B1 02 20 20 77 20 6A 01 30 20 62 F8 BD 04 48 ... -- CPU_WriteMem(512 bytes @ 0x20000450)  returns 0x200 (0002ms, 1517ms total)
T7018 023:120 JLINK_WriteReg(R0, 0x00001200)  returns 0x00 (0000ms, 1517ms total)
T7018 023:120 JLINK_WriteReg(R1, 0x00000200)  returns 0x00 (0000ms, 1517ms total)
T7018 023:120 JLINK_WriteReg(R2, 0x20000450)  returns 0x00 (0000ms, 1517ms total)
T7018 023:120 JLINK_WriteReg(R3, 0x00000000)  returns 0x00 (0000ms, 1517ms total)
T7018 023:120 JLINK_WriteReg(R4, 0x00000000)  returns 0x00 (0000ms, 1517ms total)
T7018 023:120 JLINK_WriteReg(R5, 0x00000000)  returns 0x00 (0000ms, 1517ms total)
T7018 023:120 JLINK_WriteReg(R6, 0x00000000)  returns 0x00 (0000ms, 1517ms total)
T7018 023:120 JLINK_WriteReg(R7, 0x00000000)  returns 0x00 (0001ms, 1518ms total)
T7018 023:121 JLINK_WriteReg(R8, 0x00000000)  returns 0x00 (0000ms, 1518ms total)
T7018 023:121 JLINK_WriteReg(R9, 0x20000420)  returns 0x00 (0000ms, 1518ms total)
T7018 023:121 JLINK_WriteReg(R10, 0x00000000)  returns 0x00 (0000ms, 1518ms total)
T7018 023:121 JLINK_WriteReg(R11, 0x00000000)  returns 0x00 (0000ms, 1518ms total)
T7018 023:121 JLINK_WriteReg(R12, 0x00000000)  returns 0x00 (0000ms, 1518ms total)
T7018 023:121 JLINK_WriteReg(R13 (SP), 0x20001000)  returns 0x00 (0000ms, 1518ms total)
T7018 023:121 JLINK_WriteReg(R14, 0x20000001)  returns 0x00 (0000ms, 1518ms total)
T7018 023:121 JLINK_WriteReg(R15 (PC), 0x200000DE)  returns 0x00 (0000ms, 1518ms total)
T7018 023:121 JLINK_WriteReg(XPSR, 0x01000000)  returns 0x00 (0000ms, 1518ms total)
T7018 023:121 JLINK_WriteReg(MSP, 0x20001000)  returns 0x00 (0000ms, 1518ms total)
T7018 023:121 JLINK_WriteReg(PSP, 0x20001000)  returns 0x00 (0000ms, 1518ms total)
T7018 023:121 JLINK_WriteReg(CFBP, 0x00000000)  returns 0x00 (0000ms, 1518ms total)
T7018 023:121 JLINK_SetBPEx(Addr = 0x20000000, Type = 0xFFFFFFF2)  returns 0x0000000E (0000ms, 1518ms total)
T7018 023:121 JLINK_Go() -- CPU_ReadMem(4 bytes @ 0xE0001000) (0003ms, 1521ms total)
T7018 023:124 JLINK_IsHalted()  returns FALSE (0001ms, 1522ms total)
T7018 023:127 JLINK_IsHalted()  returns FALSE (0000ms, 1521ms total)
T7018 023:129 JLINK_IsHalted()  returns FALSE (0000ms, 1521ms total)
T7018 023:131 JLINK_IsHalted()  returns FALSE (0000ms, 1521ms total)
T7018 023:133 JLINK_IsHalted()  returns FALSE (0000ms, 1521ms total)
T7018 023:135 JLINK_IsHalted() -- CPU_ReadMem(2 bytes @ 0x20000000)  returns TRUE (0002ms, 1523ms total)
T7018 023:137 JLINK_ReadReg(R15 (PC))  returns 0x20000000 (0000ms, 1521ms total)
T7018 023:137 JLINK_ClrBPEx(BPHandle = 0x0000000E)  returns 0x00 (0000ms, 1521ms total)
T7018 023:137 JLINK_ReadReg(R0)  returns 0x00000000 (0000ms, 1521ms total)
T7018 023:138 JLINK_WriteMem(0x20000450, 0x0200 Bytes, ...) - Data: 10 21 00 F0 0F F8 28 68 31 28 1A BF 28 68 01 30 ... -- CPU_WriteMem(512 bytes @ 0x20000450)  returns 0x200 (0003ms, 1524ms total)
T7018 023:141 JLINK_WriteReg(R0, 0x00001400)  returns 0x00 (0000ms, 1524ms total)
T7018 023:141 JLINK_WriteReg(R1, 0x00000200)  returns 0x00 (0000ms, 1524ms total)
T7018 023:141 JLINK_WriteReg(R2, 0x20000450)  returns 0x00 (0000ms, 1524ms total)
T7018 023:141 JLINK_WriteReg(R3, 0x00000000)  returns 0x00 (0000ms, 1524ms total)
T7018 023:141 JLINK_WriteReg(R4, 0x00000000)  returns 0x00 (0000ms, 1524ms total)
T7018 023:141 JLINK_WriteReg(R5, 0x00000000)  returns 0x00 (0000ms, 1524ms total)
T7018 023:141 JLINK_WriteReg(R6, 0x00000000)  returns 0x00 (0000ms, 1524ms total)
T7018 023:141 JLINK_WriteReg(R7, 0x00000000)  returns 0x00 (0000ms, 1524ms total)
T7018 023:141 JLINK_WriteReg(R8, 0x00000000)  returns 0x00 (0000ms, 1524ms total)
T7018 023:141 JLINK_WriteReg(R9, 0x20000420)  returns 0x00 (0000ms, 1524ms total)
T7018 023:141 JLINK_WriteReg(R10, 0x00000000)  returns 0x00 (0000ms, 1524ms total)
T7018 023:141 JLINK_WriteReg(R11, 0x00000000)  returns 0x00 (0000ms, 1524ms total)
T7018 023:141 JLINK_WriteReg(R12, 0x00000000)  returns 0x00 (0000ms, 1524ms total)
T7018 023:141 JLINK_WriteReg(R13 (SP), 0x20001000)  returns 0x00 (0000ms, 1524ms total)
T7018 023:141 JLINK_WriteReg(R14, 0x20000001)  returns 0x00 (0000ms, 1524ms total)
T7018 023:141 JLINK_WriteReg(R15 (PC), 0x200000DE)  returns 0x00 (0000ms, 1524ms total)
T7018 023:141 JLINK_WriteReg(XPSR, 0x01000000)  returns 0x00 (0000ms, 1524ms total)
T7018 023:141 JLINK_WriteReg(MSP, 0x20001000)  returns 0x00 (0000ms, 1524ms total)
T7018 023:141 JLINK_WriteReg(PSP, 0x20001000)  returns 0x00 (0000ms, 1524ms total)
T7018 023:141 JLINK_WriteReg(CFBP, 0x00000000)  returns 0x00 (0000ms, 1524ms total)
T7018 023:141 JLINK_SetBPEx(Addr = 0x20000000, Type = 0xFFFFFFF2)  returns 0x0000000F (0000ms, 1524ms total)
T7018 023:141 JLINK_Go() -- CPU_ReadMem(4 bytes @ 0xE0001000) (0003ms, 1527ms total)
T7018 023:144 JLINK_IsHalted()  returns FALSE (0000ms, 1527ms total)
T7018 023:148 JLINK_IsHalted()  returns FALSE (0001ms, 1528ms total)
T7018 023:151 JLINK_IsHalted()  returns FALSE (0000ms, 1527ms total)
T7018 023:154 JLINK_IsHalted() -- CPU_ReadMem(2 bytes @ 0x20000000)  returns TRUE (0002ms, 1529ms total)
T7018 023:156 JLINK_ReadReg(R15 (PC))  returns 0x20000000 (0000ms, 1527ms total)
T7018 023:156 JLINK_ClrBPEx(BPHandle = 0x0000000F)  returns 0x00 (0000ms, 1527ms total)
T7018 023:156 JLINK_ReadReg(R0)  returns 0x00000000 (0000ms, 1527ms total)
T7018 023:157 JLINK_WriteMem(0x20000450, 0x0200 Bytes, ...) - Data: B4 20 D4 F8 8C 20 1E F0 70 0F 40 EA 02 00 49 F0 ... -- CPU_WriteMem(512 bytes @ 0x20000450)  returns 0x200 (0002ms, 1529ms total)
